T1F0C 000:007.285   SEGGER J-Link V7.82 Log File
T1F0C 000:007.436   DLL Compiled: Oct 13 2022 13:32:51
T1F0C 000:007.455   Logging started @ 2023-04-27 11:17
T1F0C 000:007.470 - 7.477ms
T1F0C 000:007.491 JLINK_SetWarnOutHandler(...)
T1F0C 000:007.507 - 0.023ms
T1F0C 000:007.523 JLINK_OpenEx(...)
T1F0C 000:009.440   Firmware: J-Link Lite-XMC4200 Rev.1 compiled Mar  1 2019 11:28:26
T1F0C 000:009.967   Firmware: J-Link Lite-XMC4200 Rev.1 compiled Mar  1 2019 11:28:26
T1F0C 000:013.277   Hardware: V1.00
T1F0C 000:013.322   S/N: 591114279
T1F0C 000:013.347   OEM: SEGGER
T1F0C 000:013.369   Feature(s): None
T1F0C 000:015.539   TELNET listener socket opened on port 19021
T1F0C 000:015.820   WEBSRV WEBSRV_Init(): Starting webserver thread(s)
T1F0C 000:016.020   WEBSRV Webserver running on local port 19080
T1F0C 000:040.405 - 32.922ms returns "O.K."
T1F0C 000:040.485 JLINK_GetEmuCaps()
T1F0C 000:040.501 - 0.024ms returns 0xB8EA5A33
T1F0C 000:040.521 JLINK_TIF_GetAvailable(...)
T1F0C 000:040.974 - 0.493ms
T1F0C 000:041.036 JLINK_SetErrorOutHandler(...)
T1F0C 000:041.059 - 0.033ms
T1F0C 000:041.134 JLINK_ExecCommand("ProjectFile = "C:\Users\Lxp20\Desktop\CRC\APP2\JLinkSettings.ini"", ...). 
T1F0C 000:050.798 - 9.688ms returns 0x00
T1F0C 000:054.454 JLINK_ExecCommand("Device = TLE9893_2QKW62S", ...). 
T1F0C 000:057.730   Device "TLE9893" selected.
T1F0C 000:058.320 - 3.838ms returns 0x00
T1F0C 000:058.352 JLINK_ExecCommand("DisableConnectionTimeout", ...). 
T1F0C 000:058.374 - 0.009ms returns 0x01
T1F0C 000:058.390 JLINK_GetHardwareVersion()
T1F0C 000:058.405 - 0.022ms returns 10000
T1F0C 000:058.424 JLINK_GetDLLVersion()
T1F0C 000:058.438 - 0.021ms returns 78200
T1F0C 000:058.453 JLINK_GetOEMString(...)
T1F0C 000:058.469 JLINK_GetFirmwareString(...)
T1F0C 000:058.483 - 0.021ms
T1F0C 000:063.310 JLINK_GetDLLVersion()
T1F0C 000:063.346 - 0.043ms returns 78200
T1F0C 000:063.363 JLINK_GetCompileDateTime()
T1F0C 000:063.377 - 0.021ms
T1F0C 000:065.155 JLINK_GetFirmwareString(...)
T1F0C 000:065.188 - 0.041ms
T1F0C 000:066.861 JLINK_GetHardwareVersion()
T1F0C 000:066.889 - 0.035ms returns 10000
T1F0C 000:068.973 JLINK_GetSN()
T1F0C 000:069.005 - 0.041ms returns 591114279
T1F0C 000:070.583 JLINK_GetOEMString(...)
T1F0C 000:072.466 JLINK_TIF_Select(JLINKARM_TIF_SWD)
T1F0C 000:074.068 - 1.621ms returns 0x00
T1F0C 000:074.098 JLINK_HasError()
T1F0C 000:074.130 JLINK_SetSpeed(5000)
T1F0C 000:074.574 - 0.457ms
T1F0C 000:074.599 JLINK_GetId()
T1F0C 000:077.033   InitTarget() start
T1F0C 000:077.076    J-Link Script File: Executing InitTarget()
T1F0C 000:136.605   InitTarget() end
T1F0C 000:139.712   Found SW-DP with ID 0x2BA01477
T1F0C 000:142.958   Old FW that does not support reading DPIDR via DAP jobs
T1F0C 000:145.806   DPv0 detected
T1F0C 000:147.368   CoreSight SoC-400 or earlier
T1F0C 000:148.863   Scanning AP map to find all available APs
T1F0C 000:152.385   AP[1]: Stopped AP scan as end of AP map has been reached
T1F0C 000:153.946   AP[0]: AHB-AP (IDR: 0x24770011)
T1F0C 000:155.479   Iterating through AP map to find AHB-AP to use
T1F0C 000:158.609   AP[0]: Core found
T1F0C 000:160.194   AP[0]: AHB-AP ROM base: 0xE00FF000
T1F0C 000:162.705   CPUID register: 0x412FC231. Implementer code: 0x41 (ARM)
T1F0C 000:164.315   Found Cortex-M3 r2p1, Little endian.
T1F0C 000:165.107   -- Max. mem block: 0x00003D58
T1F0C 000:165.639   CPU_ReadMem(4 bytes @ 0xE000EDF0)
T1F0C 000:166.198   CPU_ReadMem(4 bytes @ 0xE0002000)
T1F0C 000:169.452   FPUnit: 2 code (BP) slots and 0 literal slots
T1F0C 000:169.491   CPU_ReadMem(4 bytes @ 0xE000EDFC)
T1F0C 000:170.049   CPU_WriteMem(4 bytes @ 0xE000EDFC)
T1F0C 000:170.621   CPU_ReadMem(4 bytes @ 0xE0001000)
T1F0C 000:171.161   CPU_WriteMem(4 bytes @ 0xE0001000)
T1F0C 000:171.726   CPU_ReadMem(4 bytes @ 0xE000ED88)
T1F0C 000:172.295   CPU_WriteMem(4 bytes @ 0xE000ED88)
T1F0C 000:172.845   CPU_ReadMem(4 bytes @ 0xE000ED88)
T1F0C 000:173.362   CPU_WriteMem(4 bytes @ 0xE000ED88)
T1F0C 000:175.696   CoreSight components:
T1F0C 000:177.314   ROMTbl[0] @ E00FF000
T1F0C 000:177.405   CPU_ReadMem(64 bytes @ 0xE00FF000)
T1F0C 000:178.358   CPU_ReadMem(32 bytes @ 0xE000EFE0)
T1F0C 000:182.218   [0][0]: E000E000 CID B105E00D PID 000BB000 SCS
T1F0C 000:182.264   CPU_ReadMem(32 bytes @ 0xE0001FE0)
T1F0C 000:184.813   [0][1]: E0001000 CID B105E00D PID 003BB002 DWT
T1F0C 000:184.855   CPU_ReadMem(32 bytes @ 0xE0002FE0)
T1F0C 000:187.579   [0][2]: E0002000 CID B105E00D PID 002BB003 FPB
T1F0C 000:188.050 - 113.464ms returns 0x2BA01477
T1F0C 000:188.080 JLINK_GetDLLVersion()
T1F0C 000:188.095 - 0.024ms returns 78200
T1F0C 000:188.115 JLINK_CORE_GetFound()
T1F0C 000:188.129 - 0.021ms returns 0x30000FF
T1F0C 000:188.146 JLINK_GetDebugInfo(0x100 = JLINKARM_ROM_TABLE_ADDR_INDEX)
T1F0C 000:188.167   Value=0xE00FF000
T1F0C 000:188.188 - 0.049ms returns 0
T1F0C 000:189.711 JLINK_GetDebugInfo(0x100 = JLINKARM_ROM_TABLE_ADDR_INDEX)
T1F0C 000:189.737   Value=0xE00FF000
T1F0C 000:189.759 - 0.054ms returns 0
T1F0C 000:189.774 JLINK_GetDebugInfo(0x101 = JLINKARM_DEBUG_INFO_ETM_ADDR_INDEX)
T1F0C 000:189.788   Value=0x00000000
T1F0C 000:189.808 - 0.041ms returns 0
T1F0C 000:189.834 JLINK_ReadMemEx(0xE0041FF0, 0x10 Bytes, Flags = 0x02000004)
T1F0C 000:189.869   CPU_ReadMem(16 bytes @ 0xE0041FF0)
T1F0C 000:190.517   Data:  00 00 00 00 00 00 00 00 00 00 00 00 00 00 00 00
T1F0C 000:190.600 - 0.782ms returns 16 (0x10)
T1F0C 000:190.637 JLINK_GetDebugInfo(0x102 = JLINKARM_DEBUG_INFO_MTB_ADDR_INDEX)
T1F0C 000:190.670   Value=0x00000000
T1F0C 000:190.723 - 0.101ms returns 0
T1F0C 000:190.757 JLINK_GetDebugInfo(0x103 = JLINKARM_DEBUG_INFO_TPIU_ADDR_INDEX)
T1F0C 000:190.789   Value=0x00000000
T1F0C 000:190.841 - 0.099ms returns 0
T1F0C 000:190.874 JLINK_ReadMemEx(0xE0040FF0, 0x10 Bytes, Flags = 0x02000004)
T1F0C 000:190.913   CPU_ReadMem(16 bytes @ 0xE0040FF0)
T1F0C 000:191.608   Data:  00 00 00 00 00 00 00 00 00 00 00 00 00 00 00 00
T1F0C 000:191.636 - 0.769ms returns 16 (0x10)
T1F0C 000:191.653 JLINK_GetDebugInfo(0x104 = JLINKARM_DEBUG_INFO_ITM_ADDR_INDEX)
T1F0C 000:191.668   Value=0xE0000000
T1F0C 000:191.689 - 0.043ms returns 0
T1F0C 000:191.704 JLINK_GetDebugInfo(0x105 = JLINKARM_DEBUG_INFO_DWT_ADDR_INDEX)
T1F0C 000:191.718   Value=0xE0001000
T1F0C 000:191.743 - 0.045ms returns 0
T1F0C 000:191.758 JLINK_GetDebugInfo(0x106 = JLINKARM_DEBUG_INFO_FPB_ADDR_INDEX)
T1F0C 000:191.772   Value=0xE0002000
T1F0C 000:191.793 - 0.042ms returns 0
T1F0C 000:191.808 JLINK_GetDebugInfo(0x107 = JLINKARM_DEBUG_INFO_NVIC_ADDR_INDEX)
T1F0C 000:191.823   Value=0xE000E000
T1F0C 000:191.846 - 0.045ms returns 0
T1F0C 000:191.861 JLINK_GetDebugInfo(0x10C = JLINKARM_DEBUG_INFO_DBG_ADDR_INDEX)
T1F0C 000:191.876   Value=0xE000EDF0
T1F0C 000:191.897 - 0.042ms returns 0
T1F0C 000:191.912 JLINK_GetDebugInfo(0x01 = Unknown)
T1F0C 000:191.933   Value=0x00000000
T1F0C 000:191.954 - 0.049ms returns 0
T1F0C 000:191.969 JLINK_ReadMemU32(0xE000ED00, 0x1 Items)
T1F0C 000:191.987   CPU_ReadMem(4 bytes @ 0xE000ED00)
T1F0C 000:192.537   Data:  31 C2 2F 41
T1F0C 000:192.564   Debug reg: CPUID
T1F0C 000:192.585 - 0.622ms returns 1 (0x1)
T1F0C 000:192.601 JLINK_GetDebugInfo(0x10F = JLINKARM_DEBUG_INFO_HAS_CORTEX_M_SECURITY_EXT_INDEX)
T1F0C 000:192.615   Value=0x00000000
T1F0C 000:192.636 - 0.041ms returns 0
T1F0C 000:192.651 JLINK_HasError()
T1F0C 000:192.667 JLINK_SetResetType(JLINKARM_CM3_RESET_TYPE_NORMAL)
T1F0C 000:192.681 - 0.021ms returns JLINKARM_CM3_RESET_TYPE_NORMAL
T1F0C 000:192.697 JLINK_Reset()
T1F0C 000:194.335   ResetTarget() start
T1F0C 000:194.373    J-Link Script File: Executing ResetTarget()
T1F0C 000:197.922   CPU_ReadMem(64 bytes @ 0x11000080)
T1F0C 000:198.862    -- Updating C cache (64 bytes @ 0x11000080)
T1F0C 000:198.894    -- Read from C cache (4 bytes @ 0x11000084)
T1F0C 000:198.925   CPU_WriteMem(4 bytes @ 0xE0002000)
T1F0C 000:199.546   CPU_ReadMem(4 bytes @ 0xE0002008)
T1F0C 000:200.151   CPU_WriteMem(4 bytes @ 0xE0002008)
T1F0C 000:200.702   CPU_WriteMem(4 bytes @ 0xE000ED0C)
T1F0C 000:305.704   CPU_WriteMem(4 bytes @ 0xE0002008)
T1F0C 000:308.190   ResetTarget() end
T1F0C 000:311.699   CPU_WriteMem(4 bytes @ 0xE0002000)
T1F0C 000:312.292   CPU_ReadMem(4 bytes @ 0xE000EDFC)
T1F0C 000:312.848   CPU_ReadMem(4 bytes @ 0xE0001000)
T1F0C 000:313.443 - 120.761ms
T1F0C 000:313.475 JLINK_Halt()
T1F0C 000:313.490 - 0.022ms returns 0x00
T1F0C 000:313.508 JLINK_ReadMemU32(0xE000EDF0, 0x1 Items)
T1F0C 000:313.527   CPU_ReadMem(4 bytes @ 0xE000EDF0)
T1F0C 000:314.046   Data:  03 00 03 00
T1F0C 000:314.073   Debug reg: DHCSR
T1F0C 000:314.094 - 0.593ms returns 1 (0x1)
T1F0C 000:314.184 JLINK_WriteU32_64(0xE000EDF0, 0xA05F0003)
T1F0C 000:314.206   Debug reg: DHCSR
T1F0C 000:314.403   CPU_WriteMem(4 bytes @ 0xE000EDF0)
T1F0C 000:314.940 - 0.767ms returns 0 (0x00000000)
T1F0C 000:314.961 JLINK_WriteU32_64(0xE000EDFC, 0x01000000)
T1F0C 000:314.976   Debug reg: DEMCR
T1F0C 000:315.000   CPU_WriteMem(4 bytes @ 0xE000EDFC)
T1F0C 000:315.556 - 0.614ms returns 0 (0x00000000)
T1F0C 000:322.967 JLINK_GetHWStatus(...)
T1F0C 000:323.371 - 0.416ms returns 0
T1F0C 000:328.047 JLINK_GetNumBPUnits(Type = 0xFFFFFF00)
T1F0C 000:328.078 - 0.038ms returns 0x02
T1F0C 000:328.094 JLINK_GetNumBPUnits(Type = 0xF0)
T1F0C 000:328.109 - 0.021ms returns 0x2000
T1F0C 000:328.124 JLINK_GetNumWPUnits()
T1F0C 000:328.143 - 0.025ms returns 1
T1F0C 000:332.684 JLINK_GetSpeed()
T1F0C 000:332.715 - 0.037ms returns 3000
T1F0C 000:337.552 JLINK_ReadMemU32(0xE000E004, 0x1 Items)
T1F0C 000:337.603   CPU_ReadMem(4 bytes @ 0xE000E004)
T1F0C 000:338.176   Data:  00 00 00 00
T1F0C 000:338.212 - 0.667ms returns 1 (0x1)
T1F0C 000:338.231 JLINK_ReadMemU32(0xE000E004, 0x1 Items)
T1F0C 000:338.255   CPU_ReadMem(4 bytes @ 0xE000E004)
T1F0C 000:338.802   Data:  00 00 00 00
T1F0C 000:338.838 - 0.615ms returns 1 (0x1)
T1F0C 000:338.855 JLINK_WriteMemEx(0xE0001000, 0x0000001C Bytes, Flags = 0x02000004)
T1F0C 000:338.870   Data:  01 00 00 00 00 00 00 00 00 00 00 00 00 00 00 00 ...
T1F0C 000:338.899   CPU_WriteMem(28 bytes @ 0xE0001000)
T1F0C 000:339.629 - 0.785ms returns 0x1C
T1F0C 000:339.657 JLINK_Halt()
T1F0C 000:339.672 - 0.022ms returns 0x00
T1F0C 000:339.689 JLINK_IsHalted()
T1F0C 000:339.705 - 0.022ms returns TRUE
T1F0C 000:342.246 JLINK_WriteMem(0x18000000, 0x130 Bytes, ...)
T1F0C 000:342.270   Data:  00 BE 0A E0 0D 78 2D 06 68 40 08 24 40 00 00 D3 ...
T1F0C 000:342.471   CPU_WriteMem(304 bytes @ 0x18000000)
T1F0C 000:345.056 - 2.831ms returns 0x130
T1F0C 000:345.123 JLINK_HasError()
T1F0C 000:345.148 JLINK_WriteReg(R0, 0x12002000)
T1F0C 000:345.174 - 0.035ms returns 0
T1F0C 000:345.194 JLINK_WriteReg(R1, 0x00B71B00)
T1F0C 000:345.213 - 0.028ms returns 0
T1F0C 000:345.233 JLINK_WriteReg(R2, 0x00000001)
T1F0C 000:345.252 - 0.028ms returns 0
T1F0C 000:345.272 JLINK_WriteReg(R3, 0x00000000)
T1F0C 000:345.291 - 0.028ms returns 0
T1F0C 000:345.310 JLINK_WriteReg(R4, 0x00000000)
T1F0C 000:345.337 - 0.044ms returns 0
T1F0C 000:345.366 JLINK_WriteReg(R5, 0x00000000)
T1F0C 000:345.385 - 0.028ms returns 0
T1F0C 000:345.405 JLINK_WriteReg(R6, 0x00000000)
T1F0C 000:345.437 - 0.042ms returns 0
T1F0C 000:345.457 JLINK_WriteReg(R7, 0x00000000)
T1F0C 000:345.485 - 0.047ms returns 0
T1F0C 000:345.520 JLINK_WriteReg(R8, 0x00000000)
T1F0C 000:345.564 - 0.057ms returns 0
T1F0C 000:345.593 JLINK_WriteReg(R9, 0x18000114)
T1F0C 000:345.619 - 0.039ms returns 0
T1F0C 000:345.646 JLINK_WriteReg(R10, 0x00000000)
T1F0C 000:345.672 - 0.038ms returns 0
T1F0C 000:345.699 JLINK_WriteReg(R11, 0x00000000)
T1F0C 000:345.725 - 0.038ms returns 0
T1F0C 000:345.752 JLINK_WriteReg(R12, 0x00000000)
T1F0C 000:345.777 - 0.039ms returns 0
T1F0C 000:345.805 JLINK_WriteReg(R13 (SP), 0x18001000)
T1F0C 000:345.841 - 0.056ms returns 0
T1F0C 000:345.877 JLINK_WriteReg(R14, 0x18000001)
T1F0C 000:345.903 - 0.042ms returns 0
T1F0C 000:345.945 JLINK_WriteReg(R15 (PC), 0x18000062)
T1F0C 000:345.983 - 0.050ms returns 0
T1F0C 000:346.011 JLINK_WriteReg(XPSR, 0x01000000)
T1F0C 000:346.037 - 0.039ms returns 0
T1F0C 000:346.064 JLINK_WriteReg(MSP, 0x18001000)
T1F0C 000:346.091 - 0.044ms returns 0
T1F0C 000:346.128 JLINK_WriteReg(PSP, 0x18001000)
T1F0C 000:346.156 - 0.041ms returns 0
T1F0C 000:346.183 JLINK_WriteReg(CFBP, 0x00000000)
T1F0C 000:346.211 - 0.040ms returns 0
T1F0C 000:346.238 JLINK_SetBPEx(Addr = 0x18000000, Type = 0xFFFFFFF2)
T1F0C 000:346.273 - 0.048ms returns 0x00000001
T1F0C 000:346.302 JLINK_Go()
T1F0C 000:346.341   CPU_WriteMem(4 bytes @ 0xE0002000)
T1F0C 000:346.991   CPU_ReadMem(4 bytes @ 0xE0001000)
T1F0C 000:347.560   CPU_WriteMem(4 bytes @ 0xE0002008)
T1F0C 000:347.589   CPU_WriteMem(4 bytes @ 0xE000200C)
T1F0C 000:348.433   CPU_WriteMem(4 bytes @ 0xE0001004)
T1F0C 000:352.374 - 6.092ms
T1F0C 000:352.406 JLINK_IsHalted()
T1F0C 000:355.843 - 3.468ms returns TRUE
T1F0C 000:355.894 JLINK_ReadReg(R15 (PC))
T1F0C 000:355.930 - 0.060ms returns 0x18000000
T1F0C 000:355.970 JLINK_ClrBPEx(BPHandle = 0x00000001)
T1F0C 000:355.998 - 0.040ms returns 0x00
T1F0C 000:356.025 JLINK_ReadReg(R0)
T1F0C 000:356.059 - 0.046ms returns 0x00000000
T1F0C 000:356.514 JLINK_HasError()
T1F0C 000:356.562 JLINK_WriteReg(R0, 0x12022000)
T1F0C 000:356.592 - 0.043ms returns 0
T1F0C 000:356.622 JLINK_WriteReg(R1, 0x00001000)
T1F0C 000:356.649 - 0.041ms returns 0
T1F0C 000:356.678 JLINK_WriteReg(R2, 0x000000FF)
T1F0C 000:356.706 - 0.041ms returns 0
T1F0C 000:356.734 JLINK_WriteReg(R3, 0x00000000)
T1F0C 000:356.756 - 0.029ms returns 0
T1F0C 000:356.772 JLINK_WriteReg(R4, 0x00000000)
T1F0C 000:356.787 - 0.022ms returns 0
T1F0C 000:356.803 JLINK_WriteReg(R5, 0x00000000)
T1F0C 000:356.818 - 0.029ms returns 0
T1F0C 000:356.847 JLINK_WriteReg(R6, 0x00000000)
T1F0C 000:356.863 - 0.023ms returns 0
T1F0C 000:356.878 JLINK_WriteReg(R7, 0x00000000)
T1F0C 000:356.893 - 0.022ms returns 0
T1F0C 000:356.912 JLINK_WriteReg(R8, 0x00000000)
T1F0C 000:356.939 - 0.035ms returns 0
T1F0C 000:356.956 JLINK_WriteReg(R9, 0x18000114)
T1F0C 000:356.971 - 0.022ms returns 0
T1F0C 000:356.986 JLINK_WriteReg(R10, 0x00000000)
T1F0C 000:357.001 - 0.022ms returns 0
T1F0C 000:357.017 JLINK_WriteReg(R11, 0x00000000)
T1F0C 000:357.032 - 0.022ms returns 0
T1F0C 000:357.047 JLINK_WriteReg(R12, 0x00000000)
T1F0C 000:357.062 - 0.022ms returns 0
T1F0C 000:357.078 JLINK_WriteReg(R13 (SP), 0x18001000)
T1F0C 000:357.093 - 0.022ms returns 0
T1F0C 000:357.109 JLINK_WriteReg(R14, 0x18000001)
T1F0C 000:357.124 - 0.022ms returns 0
T1F0C 000:357.140 JLINK_WriteReg(R15 (PC), 0x180000F6)
T1F0C 000:357.155 - 0.022ms returns 0
T1F0C 000:357.170 JLINK_WriteReg(XPSR, 0x01000000)
T1F0C 000:357.185 - 0.022ms returns 0
T1F0C 000:357.201 JLINK_WriteReg(MSP, 0x18001000)
T1F0C 000:357.216 - 0.022ms returns 0
T1F0C 000:357.232 JLINK_WriteReg(PSP, 0x18001000)
T1F0C 000:357.249 - 0.024ms returns 0
T1F0C 000:357.265 JLINK_WriteReg(CFBP, 0x00000000)
T1F0C 000:357.280 - 0.022ms returns 0
T1F0C 000:357.296 JLINK_SetBPEx(Addr = 0x18000000, Type = 0xFFFFFFF2)
T1F0C 000:357.312 - 0.023ms returns 0x00000002
T1F0C 000:357.333 JLINK_Go()
T1F0C 000:357.360   CPU_WriteMem(4 bytes @ 0xE0002000)
T1F0C 000:357.933   CPU_ReadMem(4 bytes @ 0xE0001000)
T1F0C 000:362.011 - 4.699ms
T1F0C 000:362.047 JLINK_IsHalted()
T1F0C 000:365.481 - 3.454ms returns TRUE
T1F0C 000:365.519 JLINK_ReadReg(R15 (PC))
T1F0C 000:365.540 - 0.030ms returns 0x18000000
T1F0C 000:365.562 JLINK_ClrBPEx(BPHandle = 0x00000002)
T1F0C 000:365.580 - 0.027ms returns 0x00
T1F0C 000:365.601 JLINK_ReadReg(R0)
T1F0C 000:365.619 - 0.026ms returns 0x00000001
T1F0C 000:365.637 JLINK_HasError()
T1F0C 000:365.655 JLINK_WriteReg(R0, 0x12022000)
T1F0C 000:365.669 - 0.021ms returns 0
T1F0C 000:365.689 JLINK_WriteReg(R1, 0x00001000)
T1F0C 000:365.704 - 0.021ms returns 0
T1F0C 000:365.720 JLINK_WriteReg(R2, 0x000000FF)
T1F0C 000:365.735 - 0.021ms returns 0
T1F0C 000:365.751 JLINK_WriteReg(R3, 0x00000000)
T1F0C 000:365.766 - 0.021ms returns 0
T1F0C 000:365.782 JLINK_WriteReg(R4, 0x00000000)
T1F0C 000:365.797 - 0.021ms returns 0
T1F0C 000:365.814 JLINK_WriteReg(R5, 0x00000000)
T1F0C 000:365.831 - 0.029ms returns 0
T1F0C 000:365.859 JLINK_WriteReg(R6, 0x00000000)
T1F0C 000:365.935 - 0.092ms returns 0
T1F0C 000:365.969 JLINK_WriteReg(R7, 0x00000000)
T1F0C 000:365.986 - 0.023ms returns 0
T1F0C 000:366.003 JLINK_WriteReg(R8, 0x00000000)
T1F0C 000:366.018 - 0.022ms returns 0
T1F0C 000:366.035 JLINK_WriteReg(R9, 0x18000114)
T1F0C 000:366.050 - 0.022ms returns 0
T1F0C 000:366.066 JLINK_WriteReg(R10, 0x00000000)
T1F0C 000:366.083 - 0.024ms returns 0
T1F0C 000:366.100 JLINK_WriteReg(R11, 0x00000000)
T1F0C 000:366.114 - 0.021ms returns 0
T1F0C 000:366.131 JLINK_WriteReg(R12, 0x00000000)
T1F0C 000:366.146 - 0.021ms returns 0
T1F0C 000:366.162 JLINK_WriteReg(R13 (SP), 0x18001000)
T1F0C 000:366.178 - 0.022ms returns 0
T1F0C 000:366.194 JLINK_WriteReg(R14, 0x18000001)
T1F0C 000:366.209 - 0.021ms returns 0
T1F0C 000:366.225 JLINK_WriteReg(R15 (PC), 0x180000AA)
T1F0C 000:366.240 - 0.021ms returns 0
T1F0C 000:366.257 JLINK_WriteReg(XPSR, 0x01000000)
T1F0C 000:366.271 - 0.022ms returns 0
T1F0C 000:366.288 JLINK_WriteReg(MSP, 0x18001000)
T1F0C 000:366.302 - 0.021ms returns 0
T1F0C 000:366.319 JLINK_WriteReg(PSP, 0x18001000)
T1F0C 000:366.343 - 0.034ms returns 0
T1F0C 000:366.364 JLINK_WriteReg(CFBP, 0x00000000)
T1F0C 000:366.387 - 0.036ms returns 0
T1F0C 000:366.415 JLINK_SetBPEx(Addr = 0x18000000, Type = 0xFFFFFFF2)
T1F0C 000:366.445 - 0.041ms returns 0x00000003
T1F0C 000:366.496 JLINK_Go()
T1F0C 000:366.528   CPU_WriteMem(4 bytes @ 0xE0002000)
T1F0C 000:367.182   CPU_ReadMem(4 bytes @ 0xE0001000)
T1F0C 000:371.199 - 4.734ms
T1F0C 000:371.260 JLINK_IsHalted()
T1F0C 000:371.820 - 0.585ms returns FALSE
T1F0C 000:371.862 JLINK_HasError()
T1F0C 000:381.334 JLINK_IsHalted()
T1F0C 000:384.930 - 3.652ms returns TRUE
T1F0C 000:385.003 JLINK_ReadReg(R15 (PC))
T1F0C 000:385.024 - 0.029ms returns 0x18000000
T1F0C 000:385.041 JLINK_ClrBPEx(BPHandle = 0x00000003)
T1F0C 000:385.063 - 0.029ms returns 0x00
T1F0C 000:385.080 JLINK_ReadReg(R0)
T1F0C 000:385.096 - 0.023ms returns 0x00000000
T1F0C 000:385.652 JLINK_HasError()
T1F0C 000:385.685 JLINK_WriteReg(R0, 0x12023000)
T1F0C 000:385.704 - 0.025ms returns 0
T1F0C 000:385.720 JLINK_WriteReg(R1, 0x00001000)
T1F0C 000:385.736 - 0.023ms returns 0
T1F0C 000:385.752 JLINK_WriteReg(R2, 0x000000FF)
T1F0C 000:385.767 - 0.022ms returns 0
T1F0C 000:385.783 JLINK_WriteReg(R3, 0x00000000)
T1F0C 000:385.799 - 0.022ms returns 0
T1F0C 000:385.814 JLINK_WriteReg(R4, 0x00000000)
T1F0C 000:385.837 - 0.035ms returns 0
T1F0C 000:385.859 JLINK_WriteReg(R5, 0x00000000)
T1F0C 000:385.879 - 0.033ms returns 0
T1F0C 000:385.904 JLINK_WriteReg(R6, 0x00000000)
T1F0C 000:385.930 - 0.035ms returns 0
T1F0C 000:385.948 JLINK_WriteReg(R7, 0x00000000)
T1F0C 000:385.963 - 0.022ms returns 0
T1F0C 000:385.979 JLINK_WriteReg(R8, 0x00000000)
T1F0C 000:385.994 - 0.022ms returns 0
T1F0C 000:386.010 JLINK_WriteReg(R9, 0x18000114)
T1F0C 000:386.025 - 0.022ms returns 0
T1F0C 000:386.041 JLINK_WriteReg(R10, 0x00000000)
T1F0C 000:386.056 - 0.022ms returns 0
T1F0C 000:386.072 JLINK_WriteReg(R11, 0x00000000)
T1F0C 000:386.087 - 0.022ms returns 0
T1F0C 000:386.103 JLINK_WriteReg(R12, 0x00000000)
T1F0C 000:386.118 - 0.023ms returns 0
T1F0C 000:386.134 JLINK_WriteReg(R13 (SP), 0x18001000)
T1F0C 000:386.150 - 0.023ms returns 0
T1F0C 000:386.166 JLINK_WriteReg(R14, 0x18000001)
T1F0C 000:386.181 - 0.022ms returns 0
T1F0C 000:386.196 JLINK_WriteReg(R15 (PC), 0x180000F6)
T1F0C 000:386.212 - 0.025ms returns 0
T1F0C 000:386.231 JLINK_WriteReg(XPSR, 0x01000000)
T1F0C 000:386.246 - 0.022ms returns 0
T1F0C 000:386.262 JLINK_WriteReg(MSP, 0x18001000)
T1F0C 000:386.277 - 0.022ms returns 0
T1F0C 000:386.293 JLINK_WriteReg(PSP, 0x18001000)
T1F0C 000:386.308 - 0.022ms returns 0
T1F0C 000:386.324 JLINK_WriteReg(CFBP, 0x00000000)
T1F0C 000:386.350 - 0.033ms returns 0
T1F0C 000:386.366 JLINK_SetBPEx(Addr = 0x18000000, Type = 0xFFFFFFF2)
T1F0C 000:386.383 - 0.024ms returns 0x00000004
T1F0C 000:386.399 JLINK_Go()
T1F0C 000:386.425   CPU_WriteMem(4 bytes @ 0xE0002000)
T1F0C 000:387.029   CPU_ReadMem(4 bytes @ 0xE0001000)
T1F0C 000:390.946 - 4.569ms
T1F0C 000:390.982 JLINK_IsHalted()
T1F0C 000:394.447 - 3.496ms returns TRUE
T1F0C 000:394.501 JLINK_ReadReg(R15 (PC))
T1F0C 000:394.536 - 0.051ms returns 0x18000000
T1F0C 000:394.571 JLINK_ClrBPEx(BPHandle = 0x00000004)
T1F0C 000:394.604 - 0.049ms returns 0x00
T1F0C 000:394.638 JLINK_ReadReg(R0)
T1F0C 000:394.670 - 0.049ms returns 0x00000001
T1F0C 000:394.707 JLINK_HasError()
T1F0C 000:394.743 JLINK_WriteReg(R0, 0x12023000)
T1F0C 000:394.777 - 0.051ms returns 0
T1F0C 000:394.813 JLINK_WriteReg(R1, 0x00001000)
T1F0C 000:394.837 - 0.033ms returns 0
T1F0C 000:394.857 JLINK_WriteReg(R2, 0x000000FF)
T1F0C 000:394.876 - 0.028ms returns 0
T1F0C 000:394.895 JLINK_WriteReg(R3, 0x00000000)
T1F0C 000:394.918 - 0.032ms returns 0
T1F0C 000:394.938 JLINK_WriteReg(R4, 0x00000000)
T1F0C 000:394.957 - 0.028ms returns 0
T1F0C 000:394.976 JLINK_WriteReg(R5, 0x00000000)
T1F0C 000:394.995 - 0.028ms returns 0
T1F0C 000:395.015 JLINK_WriteReg(R6, 0x00000000)
T1F0C 000:395.034 - 0.028ms returns 0
T1F0C 000:395.053 JLINK_WriteReg(R7, 0x00000000)
T1F0C 000:395.072 - 0.027ms returns 0
T1F0C 000:395.091 JLINK_WriteReg(R8, 0x00000000)
T1F0C 000:395.110 - 0.027ms returns 0
T1F0C 000:395.129 JLINK_WriteReg(R9, 0x18000114)
T1F0C 000:395.148 - 0.028ms returns 0
T1F0C 000:395.167 JLINK_WriteReg(R10, 0x00000000)
T1F0C 000:395.186 - 0.028ms returns 0
T1F0C 000:395.206 JLINK_WriteReg(R11, 0x00000000)
T1F0C 000:395.224 - 0.028ms returns 0
T1F0C 000:395.244 JLINK_WriteReg(R12, 0x00000000)
T1F0C 000:395.263 - 0.027ms returns 0
T1F0C 000:395.284 JLINK_WriteReg(R13 (SP), 0x18001000)
T1F0C 000:395.304 - 0.028ms returns 0
T1F0C 000:395.323 JLINK_WriteReg(R14, 0x18000001)
T1F0C 000:395.345 - 0.030ms returns 0
T1F0C 000:395.365 JLINK_WriteReg(R15 (PC), 0x180000AA)
T1F0C 000:395.383 - 0.028ms returns 0
T1F0C 000:395.403 JLINK_WriteReg(XPSR, 0x01000000)
T1F0C 000:395.422 - 0.028ms returns 0
T1F0C 000:395.442 JLINK_WriteReg(MSP, 0x18001000)
T1F0C 000:395.461 - 0.028ms returns 0
T1F0C 000:395.481 JLINK_WriteReg(PSP, 0x18001000)
T1F0C 000:395.500 - 0.028ms returns 0
T1F0C 000:395.519 JLINK_WriteReg(CFBP, 0x00000000)
T1F0C 000:395.538 - 0.028ms returns 0
T1F0C 000:395.558 JLINK_SetBPEx(Addr = 0x18000000, Type = 0xFFFFFFF2)
T1F0C 000:395.577 - 0.028ms returns 0x00000005
T1F0C 000:395.597 JLINK_Go()
T1F0C 000:395.619   CPU_WriteMem(4 bytes @ 0xE0002000)
T1F0C 000:396.192   CPU_ReadMem(4 bytes @ 0xE0001000)
T1F0C 000:400.099 - 4.525ms
T1F0C 000:400.139 JLINK_IsHalted()
T1F0C 000:400.671 - 0.543ms returns FALSE
T1F0C 000:400.695 JLINK_HasError()
T1F0C 000:401.844 JLINK_IsHalted()
T1F0C 000:402.448 - 0.643ms returns FALSE
T1F0C 000:402.510 JLINK_HasError()
T1F0C 000:403.836 JLINK_IsHalted()
T1F0C 000:407.313 - 3.498ms returns TRUE
T1F0C 000:407.348 JLINK_ReadReg(R15 (PC))
T1F0C 000:407.368 - 0.029ms returns 0x18000000
T1F0C 000:407.388 JLINK_ClrBPEx(BPHandle = 0x00000005)
T1F0C 000:407.406 - 0.027ms returns 0x00
T1F0C 000:407.425 JLINK_ReadReg(R0)
T1F0C 000:407.443 - 0.031ms returns 0x00000000
T1F0C 000:408.044 JLINK_HasError()
T1F0C 000:408.078 JLINK_WriteReg(R0, 0x12024000)
T1F0C 000:408.100 - 0.033ms returns 0
T1F0C 000:408.123 JLINK_WriteReg(R1, 0x00001000)
T1F0C 000:408.143 - 0.029ms returns 0
T1F0C 000:408.162 JLINK_WriteReg(R2, 0x000000FF)
T1F0C 000:408.180 - 0.027ms returns 0
T1F0C 000:408.199 JLINK_WriteReg(R3, 0x00000000)
T1F0C 000:408.217 - 0.026ms returns 0
T1F0C 000:408.236 JLINK_WriteReg(R4, 0x00000000)
T1F0C 000:408.254 - 0.026ms returns 0
T1F0C 000:408.272 JLINK_WriteReg(R5, 0x00000000)
T1F0C 000:408.290 - 0.026ms returns 0
T1F0C 000:408.309 JLINK_WriteReg(R6, 0x00000000)
T1F0C 000:408.331 - 0.031ms returns 0
T1F0C 000:408.351 JLINK_WriteReg(R7, 0x00000000)
T1F0C 000:408.368 - 0.028ms returns 0
T1F0C 000:408.390 JLINK_WriteReg(R8, 0x00000000)
T1F0C 000:408.408 - 0.026ms returns 0
T1F0C 000:408.431 JLINK_WriteReg(R9, 0x18000114)
T1F0C 000:408.449 - 0.027ms returns 0
T1F0C 000:408.468 JLINK_WriteReg(R10, 0x00000000)
T1F0C 000:408.486 - 0.026ms returns 0
T1F0C 000:408.506 JLINK_WriteReg(R11, 0x00000000)
T1F0C 000:408.537 - 0.040ms returns 0
T1F0C 000:408.557 JLINK_WriteReg(R12, 0x00000000)
T1F0C 000:408.574 - 0.027ms returns 0
T1F0C 000:408.594 JLINK_WriteReg(R13 (SP), 0x18001000)
T1F0C 000:408.612 - 0.027ms returns 0
T1F0C 000:408.631 JLINK_WriteReg(R14, 0x18000001)
T1F0C 000:408.649 - 0.027ms returns 0
T1F0C 000:408.668 JLINK_WriteReg(R15 (PC), 0x180000F6)
T1F0C 000:408.687 - 0.027ms returns 0
T1F0C 000:408.706 JLINK_WriteReg(XPSR, 0x01000000)
T1F0C 000:408.723 - 0.026ms returns 0
T1F0C 000:408.742 JLINK_WriteReg(MSP, 0x18001000)
T1F0C 000:408.759 - 0.024ms returns 0
T1F0C 000:408.774 JLINK_WriteReg(PSP, 0x18001000)
T1F0C 000:408.788 - 0.024ms returns 0
T1F0C 000:408.806 JLINK_WriteReg(CFBP, 0x00000000)
T1F0C 000:408.820 - 0.023ms returns 0
T1F0C 000:408.838 JLINK_SetBPEx(Addr = 0x18000000, Type = 0xFFFFFFF2)
T1F0C 000:408.854 - 0.023ms returns 0x00000006
T1F0C 000:408.870 JLINK_Go()
T1F0C 000:408.888   CPU_WriteMem(4 bytes @ 0xE0002000)
T1F0C 000:409.433   CPU_ReadMem(4 bytes @ 0xE0001000)
T1F0C 000:413.414 - 4.576ms
T1F0C 000:413.465 JLINK_IsHalted()
T1F0C 000:417.066 - 3.622ms returns TRUE
T1F0C 000:417.103 JLINK_ReadReg(R15 (PC))
T1F0C 000:417.125 - 0.031ms returns 0x18000000
T1F0C 000:417.145 JLINK_ClrBPEx(BPHandle = 0x00000006)
T1F0C 000:417.165 - 0.028ms returns 0x00
T1F0C 000:417.185 JLINK_ReadReg(R0)
T1F0C 000:417.204 - 0.028ms returns 0x00000001
T1F0C 000:417.224 JLINK_HasError()
T1F0C 000:417.244 JLINK_WriteReg(R0, 0x12024000)
T1F0C 000:417.263 - 0.028ms returns 0
T1F0C 000:417.283 JLINK_WriteReg(R1, 0x00001000)
T1F0C 000:417.302 - 0.028ms returns 0
T1F0C 000:417.322 JLINK_WriteReg(R2, 0x000000FF)
T1F0C 000:417.386 - 0.079ms returns 0
T1F0C 000:417.414 JLINK_WriteReg(R3, 0x00000000)
T1F0C 000:417.434 - 0.029ms returns 0
T1F0C 000:417.454 JLINK_WriteReg(R4, 0x00000000)
T1F0C 000:417.473 - 0.028ms returns 0
T1F0C 000:417.493 JLINK_WriteReg(R5, 0x00000000)
T1F0C 000:417.512 - 0.028ms returns 0
T1F0C 000:417.531 JLINK_WriteReg(R6, 0x00000000)
T1F0C 000:417.555 - 0.032ms returns 0
T1F0C 000:417.575 JLINK_WriteReg(R7, 0x00000000)
T1F0C 000:417.593 - 0.028ms returns 0
T1F0C 000:417.613 JLINK_WriteReg(R8, 0x00000000)
T1F0C 000:417.632 - 0.028ms returns 0
T1F0C 000:417.651 JLINK_WriteReg(R9, 0x18000114)
T1F0C 000:417.671 - 0.028ms returns 0
T1F0C 000:417.690 JLINK_WriteReg(R10, 0x00000000)
T1F0C 000:417.709 - 0.028ms returns 0
T1F0C 000:417.729 JLINK_WriteReg(R11, 0x00000000)
T1F0C 000:417.749 - 0.030ms returns 0
T1F0C 000:417.770 JLINK_WriteReg(R12, 0x00000000)
T1F0C 000:417.791 - 0.030ms returns 0
T1F0C 000:417.812 JLINK_WriteReg(R13 (SP), 0x18001000)
T1F0C 000:417.836 - 0.034ms returns 0
T1F0C 000:417.857 JLINK_WriteReg(R14, 0x18000001)
T1F0C 000:417.878 - 0.030ms returns 0
T1F0C 000:417.899 JLINK_WriteReg(R15 (PC), 0x180000AA)
T1F0C 000:417.919 - 0.030ms returns 0
T1F0C 000:417.943 JLINK_WriteReg(XPSR, 0x01000000)
T1F0C 000:417.963 - 0.030ms returns 0
T1F0C 000:417.984 JLINK_WriteReg(MSP, 0x18001000)
T1F0C 000:418.005 - 0.030ms returns 0
T1F0C 000:418.026 JLINK_WriteReg(PSP, 0x18001000)
T1F0C 000:418.047 - 0.030ms returns 0
T1F0C 000:418.067 JLINK_WriteReg(CFBP, 0x00000000)
T1F0C 000:418.088 - 0.030ms returns 0
T1F0C 000:418.109 JLINK_SetBPEx(Addr = 0x18000000, Type = 0xFFFFFFF2)
T1F0C 000:418.131 - 0.031ms returns 0x00000007
T1F0C 000:418.152 JLINK_Go()
T1F0C 000:418.176   CPU_WriteMem(4 bytes @ 0xE0002000)
T1F0C 000:418.808   CPU_ReadMem(4 bytes @ 0xE0001000)
T1F0C 000:422.922 - 4.798ms
T1F0C 000:422.969 JLINK_IsHalted()
T1F0C 000:423.696 - 0.747ms returns FALSE
T1F0C 000:423.735 JLINK_HasError()
T1F0C 000:424.848 JLINK_IsHalted()
T1F0C 000:425.423 - 0.589ms returns FALSE
T1F0C 000:425.454 JLINK_HasError()
T1F0C 000:426.840 JLINK_IsHalted()
T1F0C 000:430.431 - 3.617ms returns TRUE
T1F0C 000:430.470 JLINK_ReadReg(R15 (PC))
T1F0C 000:430.489 - 0.027ms returns 0x18000000
T1F0C 000:430.507 JLINK_ClrBPEx(BPHandle = 0x00000007)
T1F0C 000:430.525 - 0.025ms returns 0x00
T1F0C 000:430.548 JLINK_ReadReg(R0)
T1F0C 000:430.585 - 0.046ms returns 0x00000000
T1F0C 000:431.130 JLINK_HasError()
T1F0C 000:431.162 JLINK_WriteReg(R0, 0x12025000)
T1F0C 000:431.181 - 0.027ms returns 0
T1F0C 000:431.199 JLINK_WriteReg(R1, 0x00001000)
T1F0C 000:431.216 - 0.024ms returns 0
T1F0C 000:431.234 JLINK_WriteReg(R2, 0x000000FF)
T1F0C 000:431.250 - 0.025ms returns 0
T1F0C 000:431.268 JLINK_WriteReg(R3, 0x00000000)
T1F0C 000:431.285 - 0.025ms returns 0
T1F0C 000:431.302 JLINK_WriteReg(R4, 0x00000000)
T1F0C 000:431.319 - 0.034ms returns 0
T1F0C 000:431.355 JLINK_WriteReg(R5, 0x00000000)
T1F0C 000:431.372 - 0.025ms returns 0
T1F0C 000:431.390 JLINK_WriteReg(R6, 0x00000000)
T1F0C 000:431.406 - 0.025ms returns 0
T1F0C 000:431.424 JLINK_WriteReg(R7, 0x00000000)
T1F0C 000:431.440 - 0.024ms returns 0
T1F0C 000:431.458 JLINK_WriteReg(R8, 0x00000000)
T1F0C 000:431.474 - 0.028ms returns 0
T1F0C 000:431.496 JLINK_WriteReg(R9, 0x18000114)
T1F0C 000:431.512 - 0.024ms returns 0
T1F0C 000:431.530 JLINK_WriteReg(R10, 0x00000000)
T1F0C 000:431.556 - 0.038ms returns 0
T1F0C 000:431.578 JLINK_WriteReg(R11, 0x00000000)
T1F0C 000:431.595 - 0.025ms returns 0
T1F0C 000:431.612 JLINK_WriteReg(R12, 0x00000000)
T1F0C 000:431.629 - 0.025ms returns 0
T1F0C 000:431.646 JLINK_WriteReg(R13 (SP), 0x18001000)
T1F0C 000:431.664 - 0.026ms returns 0
T1F0C 000:431.681 JLINK_WriteReg(R14, 0x18000001)
T1F0C 000:431.698 - 0.024ms returns 0
T1F0C 000:431.715 JLINK_WriteReg(R15 (PC), 0x180000F6)
T1F0C 000:431.732 - 0.025ms returns 0
T1F0C 000:431.750 JLINK_WriteReg(XPSR, 0x01000000)
T1F0C 000:431.766 - 0.024ms returns 0
T1F0C 000:431.783 JLINK_WriteReg(MSP, 0x18001000)
T1F0C 000:431.800 - 0.024ms returns 0
T1F0C 000:431.817 JLINK_WriteReg(PSP, 0x18001000)
T1F0C 000:431.841 - 0.031ms returns 0
T1F0C 000:431.858 JLINK_WriteReg(CFBP, 0x00000000)
T1F0C 000:431.875 - 0.025ms returns 0
T1F0C 000:431.893 JLINK_SetBPEx(Addr = 0x18000000, Type = 0xFFFFFFF2)
T1F0C 000:431.911 - 0.026ms returns 0x00000008
T1F0C 000:431.929 JLINK_Go()
T1F0C 000:431.950   CPU_WriteMem(4 bytes @ 0xE0002000)
T1F0C 000:432.567   CPU_ReadMem(4 bytes @ 0xE0001000)
T1F0C 000:436.598 - 4.706ms
T1F0C 000:436.656 JLINK_IsHalted()
T1F0C 000:440.169 - 3.542ms returns TRUE
T1F0C 000:440.216 JLINK_ReadReg(R15 (PC))
T1F0C 000:440.246 - 0.042ms returns 0x18000000
T1F0C 000:440.274 JLINK_ClrBPEx(BPHandle = 0x00000008)
T1F0C 000:440.301 - 0.039ms returns 0x00
T1F0C 000:440.333 JLINK_ReadReg(R0)
T1F0C 000:440.377 - 0.057ms returns 0x00000001
T1F0C 000:440.406 JLINK_HasError()
T1F0C 000:440.434 JLINK_WriteReg(R0, 0x12025000)
T1F0C 000:440.461 - 0.040ms returns 0
T1F0C 000:440.488 JLINK_WriteReg(R1, 0x00001000)
T1F0C 000:440.514 - 0.039ms returns 0
T1F0C 000:440.544 JLINK_WriteReg(R2, 0x000000FF)
T1F0C 000:440.585 - 0.055ms returns 0
T1F0C 000:440.613 JLINK_WriteReg(R3, 0x00000000)
T1F0C 000:440.640 - 0.039ms returns 0
T1F0C 000:440.667 JLINK_WriteReg(R4, 0x00000000)
T1F0C 000:440.693 - 0.045ms returns 0
T1F0C 000:440.726 JLINK_WriteReg(R5, 0x00000000)
T1F0C 000:440.752 - 0.039ms returns 0
T1F0C 000:440.780 JLINK_WriteReg(R6, 0x00000000)
T1F0C 000:440.803 - 0.031ms returns 0
T1F0C 000:440.820 JLINK_WriteReg(R7, 0x00000000)
T1F0C 000:440.850 - 0.038ms returns 0
T1F0C 000:440.868 JLINK_WriteReg(R8, 0x00000000)
T1F0C 000:440.885 - 0.024ms returns 0
T1F0C 000:440.902 JLINK_WriteReg(R9, 0x18000114)
T1F0C 000:440.919 - 0.024ms returns 0
T1F0C 000:440.936 JLINK_WriteReg(R10, 0x00000000)
T1F0C 000:440.953 - 0.025ms returns 0
T1F0C 000:440.970 JLINK_WriteReg(R11, 0x00000000)
T1F0C 000:440.987 - 0.024ms returns 0
T1F0C 000:441.004 JLINK_WriteReg(R12, 0x00000000)
T1F0C 000:441.020 - 0.024ms returns 0
T1F0C 000:441.040 JLINK_WriteReg(R13 (SP), 0x18001000)
T1F0C 000:441.066 - 0.034ms returns 0
T1F0C 000:441.084 JLINK_WriteReg(R14, 0x18000001)
T1F0C 000:441.104 - 0.028ms returns 0
T1F0C 000:441.122 JLINK_WriteReg(R15 (PC), 0x180000AA)
T1F0C 000:441.138 - 0.025ms returns 0
T1F0C 000:441.156 JLINK_WriteReg(XPSR, 0x01000000)
T1F0C 000:441.173 - 0.113ms returns 0
T1F0C 000:441.283 JLINK_WriteReg(MSP, 0x18001000)
T1F0C 000:441.300 - 0.025ms returns 0
T1F0C 000:441.318 JLINK_WriteReg(PSP, 0x18001000)
T1F0C 000:441.348 - 0.039ms returns 0
T1F0C 000:441.367 JLINK_WriteReg(CFBP, 0x00000000)
T1F0C 000:441.384 - 0.025ms returns 0
T1F0C 000:441.401 JLINK_SetBPEx(Addr = 0x18000000, Type = 0xFFFFFFF2)
T1F0C 000:441.419 - 0.026ms returns 0x00000009
T1F0C 000:441.437 JLINK_Go()
T1F0C 000:441.456   CPU_WriteMem(4 bytes @ 0xE0002000)
T1F0C 000:442.051   CPU_ReadMem(4 bytes @ 0xE0001000)
T1F0C 000:445.981 - 4.564ms
T1F0C 000:446.014 JLINK_IsHalted()
T1F0C 000:446.579 - 0.585ms returns FALSE
T1F0C 000:446.612 JLINK_HasError()
T1F0C 000:448.841 JLINK_IsHalted()
T1F0C 000:449.401 - 0.583ms returns FALSE
T1F0C 000:449.441 JLINK_HasError()
T1F0C 000:450.845 JLINK_IsHalted()
T1F0C 000:454.379 - 3.556ms returns TRUE
T1F0C 000:454.415 JLINK_ReadReg(R15 (PC))
T1F0C 000:454.439 - 0.034ms returns 0x18000000
T1F0C 000:454.462 JLINK_ClrBPEx(BPHandle = 0x00000009)
T1F0C 000:454.483 - 0.031ms returns 0x00
T1F0C 000:454.505 JLINK_ReadReg(R0)
T1F0C 000:454.526 - 0.031ms returns 0x00000000
T1F0C 000:455.249 JLINK_HasError()
T1F0C 000:455.302 JLINK_WriteReg(R0, 0x12026000)
T1F0C 000:455.363 - 0.076ms returns 0
T1F0C 000:455.394 JLINK_WriteReg(R1, 0x00001000)
T1F0C 000:455.420 - 0.039ms returns 0
T1F0C 000:455.448 JLINK_WriteReg(R2, 0x000000FF)
T1F0C 000:455.474 - 0.039ms returns 0
T1F0C 000:455.501 JLINK_WriteReg(R3, 0x00000000)
T1F0C 000:455.527 - 0.039ms returns 0
T1F0C 000:455.555 JLINK_WriteReg(R4, 0x00000000)
T1F0C 000:455.588 - 0.045ms returns 0
T1F0C 000:455.615 JLINK_WriteReg(R5, 0x00000000)
T1F0C 000:455.640 - 0.038ms returns 0
T1F0C 000:455.667 JLINK_WriteReg(R6, 0x00000000)
T1F0C 000:455.693 - 0.038ms returns 0
T1F0C 000:455.720 JLINK_WriteReg(R7, 0x00000000)
T1F0C 000:455.746 - 0.038ms returns 0
T1F0C 000:455.773 JLINK_WriteReg(R8, 0x00000000)
T1F0C 000:455.806 - 0.056ms returns 0
T1F0C 000:455.847 JLINK_WriteReg(R9, 0x18000114)
T1F0C 000:455.866 - 0.027ms returns 0
T1F0C 000:455.883 JLINK_WriteReg(R10, 0x00000000)
T1F0C 000:455.900 - 0.024ms returns 0
T1F0C 000:455.917 JLINK_WriteReg(R11, 0x00000000)
T1F0C 000:455.934 - 0.024ms returns 0
T1F0C 000:455.951 JLINK_WriteReg(R12, 0x00000000)
T1F0C 000:455.968 - 0.025ms returns 0
T1F0C 000:455.985 JLINK_WriteReg(R13 (SP), 0x18001000)
T1F0C 000:456.002 - 0.025ms returns 0
T1F0C 000:456.023 JLINK_WriteReg(R14, 0x18000001)
T1F0C 000:456.040 - 0.030ms returns 0
T1F0C 000:456.063 JLINK_WriteReg(R15 (PC), 0x180000F6)
T1F0C 000:456.080 - 0.025ms returns 0
T1F0C 000:456.097 JLINK_WriteReg(XPSR, 0x01000000)
T1F0C 000:456.114 - 0.024ms returns 0
T1F0C 000:456.131 JLINK_WriteReg(MSP, 0x18001000)
T1F0C 000:456.148 - 0.025ms returns 0
T1F0C 000:456.165 JLINK_WriteReg(PSP, 0x18001000)
T1F0C 000:456.182 - 0.024ms returns 0
T1F0C 000:456.199 JLINK_WriteReg(CFBP, 0x00000000)
T1F0C 000:456.216 - 0.024ms returns 0
T1F0C 000:456.234 JLINK_SetBPEx(Addr = 0x18000000, Type = 0xFFFFFFF2)
T1F0C 000:456.252 - 0.026ms returns 0x0000000A
T1F0C 000:456.269 JLINK_Go()
T1F0C 000:456.291   CPU_WriteMem(4 bytes @ 0xE0002000)
T1F0C 000:456.883   CPU_ReadMem(4 bytes @ 0xE0001000)
T1F0C 000:460.902 - 4.651ms
T1F0C 000:460.933 JLINK_IsHalted()
T1F0C 000:464.374 - 3.467ms returns TRUE
T1F0C 000:464.413 JLINK_ReadReg(R15 (PC))
T1F0C 000:464.431 - 0.027ms returns 0x18000000
T1F0C 000:464.450 JLINK_ClrBPEx(BPHandle = 0x0000000A)
T1F0C 000:464.467 - 0.025ms returns 0x00
T1F0C 000:464.485 JLINK_ReadReg(R0)
T1F0C 000:464.502 - 0.025ms returns 0x00000001
T1F0C 000:464.520 JLINK_HasError()
T1F0C 000:464.538 JLINK_WriteReg(R0, 0x12026000)
T1F0C 000:464.555 - 0.025ms returns 0
T1F0C 000:464.573 JLINK_WriteReg(R1, 0x00001000)
T1F0C 000:464.590 - 0.027ms returns 0
T1F0C 000:464.609 JLINK_WriteReg(R2, 0x000000FF)
T1F0C 000:464.626 - 0.025ms returns 0
T1F0C 000:464.644 JLINK_WriteReg(R3, 0x00000000)
T1F0C 000:464.660 - 0.028ms returns 0
T1F0C 000:464.689 JLINK_WriteReg(R4, 0x00000000)
T1F0C 000:464.715 - 0.040ms returns 0
T1F0C 000:464.744 JLINK_WriteReg(R5, 0x00000000)
T1F0C 000:464.765 - 0.031ms returns 0
T1F0C 000:464.787 JLINK_WriteReg(R6, 0x00000000)
T1F0C 000:464.808 - 0.031ms returns 0
T1F0C 000:464.838 JLINK_WriteReg(R7, 0x00000000)
T1F0C 000:464.868 - 0.040ms returns 0
T1F0C 000:464.890 JLINK_WriteReg(R8, 0x00000000)
T1F0C 000:464.914 - 0.034ms returns 0
T1F0C 000:464.935 JLINK_WriteReg(R9, 0x18000114)
T1F0C 000:464.956 - 0.031ms returns 0
T1F0C 000:464.978 JLINK_WriteReg(R10, 0x00000000)
T1F0C 000:464.999 - 0.031ms returns 0
T1F0C 000:465.020 JLINK_WriteReg(R11, 0x00000000)
T1F0C 000:465.041 - 0.031ms returns 0
T1F0C 000:465.063 JLINK_WriteReg(R12, 0x00000000)
T1F0C 000:465.084 - 0.031ms returns 0
T1F0C 000:465.105 JLINK_WriteReg(R13 (SP), 0x18001000)
T1F0C 000:465.126 - 0.031ms returns 0
T1F0C 000:465.148 JLINK_WriteReg(R14, 0x18000001)
T1F0C 000:465.181 - 0.049ms returns 0
T1F0C 000:465.211 JLINK_WriteReg(R15 (PC), 0x180000AA)
T1F0C 000:465.232 - 0.031ms returns 0
T1F0C 000:465.254 JLINK_WriteReg(XPSR, 0x01000000)
T1F0C 000:465.275 - 0.031ms returns 0
T1F0C 000:465.297 JLINK_WriteReg(MSP, 0x18001000)
T1F0C 000:465.317 - 0.038ms returns 0
T1F0C 000:465.354 JLINK_WriteReg(PSP, 0x18001000)
T1F0C 000:465.375 - 0.031ms returns 0
T1F0C 000:465.397 JLINK_WriteReg(CFBP, 0x00000000)
T1F0C 000:465.418 - 0.031ms returns 0
T1F0C 000:465.440 JLINK_SetBPEx(Addr = 0x18000000, Type = 0xFFFFFFF2)
T1F0C 000:465.463 - 0.033ms returns 0x0000000B
T1F0C 000:465.485 JLINK_Go()
T1F0C 000:465.510   CPU_WriteMem(4 bytes @ 0xE0002000)
T1F0C 000:466.105   CPU_ReadMem(4 bytes @ 0xE0001000)
T1F0C 000:470.168 - 4.709ms
T1F0C 000:470.209 JLINK_IsHalted()
T1F0C 000:470.747 - 0.551ms returns FALSE
T1F0C 000:470.772 JLINK_HasError()
T1F0C 000:471.842 JLINK_IsHalted()
T1F0C 000:472.444 - 0.624ms returns FALSE
T1F0C 000:472.483 JLINK_HasError()
T1F0C 000:473.844 JLINK_IsHalted()
T1F0C 000:477.338 - 3.521ms returns TRUE
T1F0C 000:477.383 JLINK_ReadReg(R15 (PC))
T1F0C 000:477.403 - 0.028ms returns 0x18000000
T1F0C 000:477.423 JLINK_ClrBPEx(BPHandle = 0x0000000B)
T1F0C 000:477.441 - 0.026ms returns 0x00
T1F0C 000:477.461 JLINK_ReadReg(R0)
T1F0C 000:477.479 - 0.028ms returns 0x00000000
T1F0C 000:478.076 JLINK_HasError()
T1F0C 000:478.110 JLINK_WriteReg(R0, 0x12027000)
T1F0C 000:478.130 - 0.028ms returns 0
T1F0C 000:478.149 JLINK_WriteReg(R1, 0x00001000)
T1F0C 000:478.166 - 0.025ms returns 0
T1F0C 000:478.184 JLINK_WriteReg(R2, 0x000000FF)
T1F0C 000:478.200 - 0.024ms returns 0
T1F0C 000:478.217 JLINK_WriteReg(R3, 0x00000000)
T1F0C 000:478.234 - 0.024ms returns 0
T1F0C 000:478.251 JLINK_WriteReg(R4, 0x00000000)
T1F0C 000:478.268 - 0.025ms returns 0
T1F0C 000:478.285 JLINK_WriteReg(R5, 0x00000000)
T1F0C 000:478.302 - 0.024ms returns 0
T1F0C 000:478.319 JLINK_WriteReg(R6, 0x00000000)
T1F0C 000:478.340 - 0.028ms returns 0
T1F0C 000:478.357 JLINK_WriteReg(R7, 0x00000000)
T1F0C 000:478.377 - 0.028ms returns 0
T1F0C 000:478.394 JLINK_WriteReg(R8, 0x00000000)
T1F0C 000:478.411 - 0.025ms returns 0
T1F0C 000:478.428 JLINK_WriteReg(R9, 0x18000114)
T1F0C 000:478.445 - 0.024ms returns 0
T1F0C 000:478.462 JLINK_WriteReg(R10, 0x00000000)
T1F0C 000:478.479 - 0.025ms returns 0
T1F0C 000:478.496 JLINK_WriteReg(R11, 0x00000000)
T1F0C 000:478.513 - 0.025ms returns 0
T1F0C 000:478.531 JLINK_WriteReg(R12, 0x00000000)
T1F0C 000:478.547 - 0.025ms returns 0
T1F0C 000:478.565 JLINK_WriteReg(R13 (SP), 0x18001000)
T1F0C 000:478.582 - 0.025ms returns 0
T1F0C 000:478.600 JLINK_WriteReg(R14, 0x18000001)
T1F0C 000:478.616 - 0.024ms returns 0
T1F0C 000:478.634 JLINK_WriteReg(R15 (PC), 0x180000F6)
T1F0C 000:478.650 - 0.025ms returns 0
T1F0C 000:478.668 JLINK_WriteReg(XPSR, 0x01000000)
T1F0C 000:478.685 - 0.025ms returns 0
T1F0C 000:478.702 JLINK_WriteReg(MSP, 0x18001000)
T1F0C 000:478.722 - 0.027ms returns 0
T1F0C 000:478.739 JLINK_WriteReg(PSP, 0x18001000)
T1F0C 000:478.756 - 0.024ms returns 0
T1F0C 000:478.773 JLINK_WriteReg(CFBP, 0x00000000)
T1F0C 000:478.790 - 0.024ms returns 0
T1F0C 000:478.807 JLINK_SetBPEx(Addr = 0x18000000, Type = 0xFFFFFFF2)
T1F0C 000:478.834 - 0.035ms returns 0x0000000C
T1F0C 000:478.852 JLINK_Go()
T1F0C 000:478.873   CPU_WriteMem(4 bytes @ 0xE0002000)
T1F0C 000:479.448   CPU_ReadMem(4 bytes @ 0xE0001000)
T1F0C 000:483.371 - 4.540ms
T1F0C 000:483.406 JLINK_IsHalted()
T1F0C 000:486.936 - 3.558ms returns TRUE
T1F0C 000:486.982 JLINK_ReadReg(R15 (PC))
T1F0C 000:487.011 - 0.041ms returns 0x18000000
T1F0C 000:487.038 JLINK_ClrBPEx(BPHandle = 0x0000000C)
T1F0C 000:487.065 - 0.039ms returns 0x00
T1F0C 000:487.093 JLINK_ReadReg(R0)
T1F0C 000:487.119 - 0.039ms returns 0x00000001
T1F0C 000:487.147 JLINK_HasError()
T1F0C 000:487.174 JLINK_WriteReg(R0, 0x12027000)
T1F0C 000:487.200 - 0.039ms returns 0
T1F0C 000:487.228 JLINK_WriteReg(R1, 0x00001000)
T1F0C 000:487.254 - 0.039ms returns 0
T1F0C 000:487.281 JLINK_WriteReg(R2, 0x000000FF)
T1F0C 000:487.320 - 0.070ms returns 0
T1F0C 000:487.368 JLINK_WriteReg(R3, 0x00000000)
T1F0C 000:487.395 - 0.039ms returns 0
T1F0C 000:487.422 JLINK_WriteReg(R4, 0x00000000)
T1F0C 000:487.448 - 0.038ms returns 0
T1F0C 000:487.475 JLINK_WriteReg(R5, 0x00000000)
T1F0C 000:487.507 - 0.045ms returns 0
T1F0C 000:487.534 JLINK_WriteReg(R6, 0x00000000)
T1F0C 000:487.561 - 0.039ms returns 0
T1F0C 000:487.588 JLINK_WriteReg(R7, 0x00000000)
T1F0C 000:487.614 - 0.038ms returns 0
T1F0C 000:487.641 JLINK_WriteReg(R8, 0x00000000)
T1F0C 000:487.666 - 0.038ms returns 0
T1F0C 000:487.694 JLINK_WriteReg(R9, 0x18000114)
T1F0C 000:487.719 - 0.038ms returns 0
T1F0C 000:487.746 JLINK_WriteReg(R10, 0x00000000)
T1F0C 000:487.772 - 0.038ms returns 0
T1F0C 000:487.805 JLINK_WriteReg(R11, 0x00000000)
T1F0C 000:487.861 - 0.068ms returns 0
T1F0C 000:487.882 JLINK_WriteReg(R12, 0x00000000)
T1F0C 000:487.899 - 0.024ms returns 0
T1F0C 000:487.917 JLINK_WriteReg(R13 (SP), 0x18001000)
T1F0C 000:487.933 - 0.025ms returns 0
T1F0C 000:487.951 JLINK_WriteReg(R14, 0x18000001)
T1F0C 000:487.967 - 0.024ms returns 0
T1F0C 000:487.985 JLINK_WriteReg(R15 (PC), 0x180000AA)
T1F0C 000:488.005 - 0.028ms returns 0
T1F0C 000:488.022 JLINK_WriteReg(XPSR, 0x01000000)
T1F0C 000:488.039 - 0.025ms returns 0
T1F0C 000:488.056 JLINK_WriteReg(MSP, 0x18001000)
T1F0C 000:488.073 - 0.024ms returns 0
T1F0C 000:488.090 JLINK_WriteReg(PSP, 0x18001000)
T1F0C 000:488.107 - 0.024ms returns 0
T1F0C 000:488.124 JLINK_WriteReg(CFBP, 0x00000000)
T1F0C 000:488.141 - 0.024ms returns 0
T1F0C 000:488.158 JLINK_SetBPEx(Addr = 0x18000000, Type = 0xFFFFFFF2)
T1F0C 000:488.176 - 0.026ms returns 0x0000000D
T1F0C 000:488.194 JLINK_Go()
T1F0C 000:488.213   CPU_WriteMem(4 bytes @ 0xE0002000)
T1F0C 000:488.796   CPU_ReadMem(4 bytes @ 0xE0001000)
T1F0C 000:492.868 - 4.700ms
T1F0C 000:492.910 JLINK_IsHalted()
T1F0C 000:493.454 - 0.560ms returns FALSE
T1F0C 000:493.485 JLINK_HasError()
T1F0C 000:495.845 JLINK_IsHalted()
T1F0C 000:496.437 - 0.613ms returns FALSE
T1F0C 000:496.472 JLINK_HasError()
T1F0C 000:497.834 JLINK_IsHalted()
T1F0C 000:501.349 - 3.544ms returns TRUE
T1F0C 000:501.396 JLINK_ReadReg(R15 (PC))
T1F0C 000:501.422 - 0.036ms returns 0x18000000
T1F0C 000:501.445 JLINK_ClrBPEx(BPHandle = 0x0000000D)
T1F0C 000:501.467 - 0.032ms returns 0x00
T1F0C 000:501.489 JLINK_ReadReg(R0)
T1F0C 000:501.511 - 0.031ms returns 0x00000000
T1F0C 000:502.084 JLINK_HasError()
T1F0C 000:502.119 JLINK_WriteReg(R0, 0x00000001)
T1F0C 000:502.146 - 0.035ms returns 0
T1F0C 000:502.164 JLINK_WriteReg(R1, 0x00001000)
T1F0C 000:502.181 - 0.024ms returns 0
T1F0C 000:502.197 JLINK_WriteReg(R2, 0x000000FF)
T1F0C 000:502.213 - 0.023ms returns 0
T1F0C 000:502.230 JLINK_WriteReg(R3, 0x00000000)
T1F0C 000:502.249 - 0.027ms returns 0
T1F0C 000:502.266 JLINK_WriteReg(R4, 0x00000000)
T1F0C 000:502.282 - 0.023ms returns 0
T1F0C 000:502.299 JLINK_WriteReg(R5, 0x00000000)
T1F0C 000:502.315 - 0.024ms returns 0
T1F0C 000:502.335 JLINK_WriteReg(R6, 0x00000000)
T1F0C 000:502.351 - 0.023ms returns 0
T1F0C 000:502.368 JLINK_WriteReg(R7, 0x00000000)
T1F0C 000:502.384 - 0.023ms returns 0
T1F0C 000:502.400 JLINK_WriteReg(R8, 0x00000000)
T1F0C 000:502.422 - 0.029ms returns 0
T1F0C 000:502.439 JLINK_WriteReg(R9, 0x18000114)
T1F0C 000:502.454 - 0.023ms returns 0
T1F0C 000:502.471 JLINK_WriteReg(R10, 0x00000000)
T1F0C 000:502.487 - 0.023ms returns 0
T1F0C 000:502.503 JLINK_WriteReg(R11, 0x00000000)
T1F0C 000:502.519 - 0.023ms returns 0
T1F0C 000:502.535 JLINK_WriteReg(R12, 0x00000000)
T1F0C 000:502.551 - 0.023ms returns 0
T1F0C 000:502.568 JLINK_WriteReg(R13 (SP), 0x18001000)
T1F0C 000:502.587 - 0.027ms returns 0
T1F0C 000:502.604 JLINK_WriteReg(R14, 0x18000001)
T1F0C 000:502.620 - 0.023ms returns 0
T1F0C 000:502.636 JLINK_WriteReg(R15 (PC), 0x18000066)
T1F0C 000:502.652 - 0.023ms returns 0
T1F0C 000:502.668 JLINK_WriteReg(XPSR, 0x01000000)
T1F0C 000:502.684 - 0.024ms returns 0
T1F0C 000:502.701 JLINK_WriteReg(MSP, 0x18001000)
T1F0C 000:502.717 - 0.024ms returns 0
T1F0C 000:502.734 JLINK_WriteReg(PSP, 0x18001000)
T1F0C 000:502.750 - 0.024ms returns 0
T1F0C 000:502.767 JLINK_WriteReg(CFBP, 0x00000000)
T1F0C 000:502.783 - 0.023ms returns 0
T1F0C 000:502.800 JLINK_SetBPEx(Addr = 0x18000000, Type = 0xFFFFFFF2)
T1F0C 000:502.817 - 0.025ms returns 0x0000000E
T1F0C 000:502.836 JLINK_Go()
T1F0C 000:502.856   CPU_WriteMem(4 bytes @ 0xE0002000)
T1F0C 000:503.440   CPU_ReadMem(4 bytes @ 0xE0001000)
T1F0C 000:507.363 - 4.544ms
T1F0C 000:507.396 JLINK_IsHalted()
T1F0C 000:510.835 - 3.463ms returns TRUE
T1F0C 000:510.877 JLINK_ReadReg(R15 (PC))
T1F0C 000:510.899 - 0.029ms returns 0x18000000
T1F0C 000:510.917 JLINK_ClrBPEx(BPHandle = 0x0000000E)
T1F0C 000:510.932 - 0.022ms returns 0x00
T1F0C 000:510.950 JLINK_ReadReg(R0)
T1F0C 000:510.965 - 0.022ms returns 0x00000000
T1F0C 000:756.765 JLINK_WriteMem(0x18000000, 0x130 Bytes, ...)
T1F0C 000:756.817   Data:  00 BE 0A E0 0D 78 2D 06 68 40 08 24 40 00 00 D3 ...
T1F0C 000:756.891   CPU_WriteMem(304 bytes @ 0x18000000)
T1F0C 000:759.601 - 2.889ms returns 0x130
T1F0C 000:759.722 JLINK_HasError()
T1F0C 000:759.756 JLINK_WriteReg(R0, 0x12002000)
T1F0C 000:759.780 - 0.038ms returns 0
T1F0C 000:759.808 JLINK_WriteReg(R1, 0x00B71B00)
T1F0C 000:759.854 - 0.074ms returns 0
T1F0C 000:759.899 JLINK_WriteReg(R2, 0x00000002)
T1F0C 000:759.927 - 0.043ms returns 0
T1F0C 000:759.978 JLINK_WriteReg(R3, 0x00000000)
T1F0C 000:760.011 - 0.046ms returns 0
T1F0C 000:760.045 JLINK_WriteReg(R4, 0x00000000)
T1F0C 000:760.090 - 0.054ms returns 0
T1F0C 000:760.123 JLINK_WriteReg(R5, 0x00000000)
T1F0C 000:760.164 - 0.056ms returns 0
T1F0C 000:760.191 JLINK_WriteReg(R6, 0x00000000)
T1F0C 000:760.210 - 0.027ms returns 0
T1F0C 000:760.228 JLINK_WriteReg(R7, 0x00000000)
T1F0C 000:760.254 - 0.040ms returns 0
T1F0C 000:760.279 JLINK_WriteReg(R8, 0x00000000)
T1F0C 000:760.297 - 0.026ms returns 0
T1F0C 000:760.316 JLINK_WriteReg(R9, 0x18000114)
T1F0C 000:760.346 - 0.047ms returns 0
T1F0C 000:760.389 JLINK_WriteReg(R10, 0x00000000)
T1F0C 000:760.430 - 0.050ms returns 0
T1F0C 000:760.450 JLINK_WriteReg(R11, 0x00000000)
T1F0C 000:760.478 - 0.037ms returns 0
T1F0C 000:760.503 JLINK_WriteReg(R12, 0x00000000)
T1F0C 000:760.564 - 0.073ms returns 0
T1F0C 000:760.588 JLINK_WriteReg(R13 (SP), 0x18001000)
T1F0C 000:760.606 - 0.027ms returns 0
T1F0C 000:760.625 JLINK_WriteReg(R14, 0x18000001)
T1F0C 000:760.642 - 0.026ms returns 0
T1F0C 000:760.664 JLINK_WriteReg(R15 (PC), 0x18000062)
T1F0C 000:760.690 - 0.039ms returns 0
T1F0C 000:760.716 JLINK_WriteReg(XPSR, 0x01000000)
T1F0C 000:760.742 - 0.039ms returns 0
T1F0C 000:760.771 JLINK_WriteReg(MSP, 0x18001000)
T1F0C 000:760.790 - 0.026ms returns 0
T1F0C 000:760.808 JLINK_WriteReg(PSP, 0x18001000)
T1F0C 000:760.830 - 0.073ms returns 0
T1F0C 000:760.902 JLINK_WriteReg(CFBP, 0x00000000)
T1F0C 000:760.924 - 0.030ms returns 0
T1F0C 000:760.943 JLINK_SetBPEx(Addr = 0x18000000, Type = 0xFFFFFFF2)
T1F0C 000:760.963 - 0.028ms returns 0x0000000F
T1F0C 000:760.981 JLINK_Go()
T1F0C 000:761.005   CPU_WriteMem(4 bytes @ 0xE0002000)
T1F0C 000:761.583   CPU_ReadMem(4 bytes @ 0xE0001000)
T1F0C 000:765.565 - 4.628ms
T1F0C 000:765.648 JLINK_IsHalted()
T1F0C 000:769.238 - 3.629ms returns TRUE
T1F0C 000:769.305 JLINK_ReadReg(R15 (PC))
T1F0C 000:769.341 - 0.047ms returns 0x18000000
T1F0C 000:769.371 JLINK_ClrBPEx(BPHandle = 0x0000000F)
T1F0C 000:769.402 - 0.047ms returns 0x00
T1F0C 000:769.440 JLINK_ReadReg(R0)
T1F0C 000:769.467 - 0.038ms returns 0x00000000
T1F0C 000:777.743 JLINK_WriteMem(0x18000130, 0x80 Bytes, ...)
T1F0C 000:777.791   Data:  01 FE 01 FE 00 00 00 00 00 00 00 00 00 00 00 00 ...
T1F0C 000:777.843   CPU_WriteMem(128 bytes @ 0x18000130)
T1F0C 000:779.366 - 1.655ms returns 0x80
T1F0C 000:779.419 JLINK_HasError()
T1F0C 000:779.460 JLINK_WriteReg(R0, 0x12022000)
T1F0C 000:779.500 - 0.074ms returns 0
T1F0C 000:779.551 JLINK_WriteReg(R1, 0x00000080)
T1F0C 000:779.585 - 0.046ms returns 0
T1F0C 000:779.610 JLINK_WriteReg(R2, 0x18000130)
T1F0C 000:779.645 - 0.045ms returns 0
T1F0C 000:779.668 JLINK_WriteReg(R3, 0x00000000)
T1F0C 000:779.702 - 0.050ms returns 0
T1F0C 000:779.739 JLINK_WriteReg(R4, 0x00000000)
T1F0C 000:779.775 - 0.054ms returns 0
T1F0C 000:779.811 JLINK_WriteReg(R5, 0x00000000)
T1F0C 000:779.860 - 0.059ms returns 0
T1F0C 000:779.883 JLINK_WriteReg(R6, 0x00000000)
T1F0C 000:779.955 - 0.089ms returns 0
T1F0C 000:780.019 JLINK_WriteReg(R7, 0x00000000)
T1F0C 000:780.062 - 0.058ms returns 0
T1F0C 000:780.096 JLINK_WriteReg(R8, 0x00000000)
T1F0C 000:780.118 - 0.031ms returns 0
T1F0C 000:780.139 JLINK_WriteReg(R9, 0x18000114)
T1F0C 000:780.201 - 0.076ms returns 0
T1F0C 000:780.237 JLINK_WriteReg(R10, 0x00000000)
T1F0C 000:780.260 - 0.033ms returns 0
T1F0C 000:780.282 JLINK_WriteReg(R11, 0x00000000)
T1F0C 000:780.339 - 0.081ms returns 0
T1F0C 000:780.382 JLINK_WriteReg(R12, 0x00000000)
T1F0C 000:780.429 - 0.058ms returns 0
T1F0C 000:780.455 JLINK_WriteReg(R13 (SP), 0x18001000)
T1F0C 000:780.482 - 0.036ms returns 0
T1F0C 000:780.501 JLINK_WriteReg(R14, 0x18000001)
